Freq.	V(nc_01)
1.00000000000000e+00	(-1.51174982791584e+01dB,-2.96842078704271e-02°)
1.00230523807790e+00	(-1.51174982845391e+01dB,-2.97526370244353e-02°)
1.00461579027839e+00	(-1.51174982899446e+01dB,-2.98212239238498e-02°)
1.00693166885180e+00	(-1.51174982953750e+01dB,-2.98899689323096e-02°)
1.00925288607668e+00	(-1.51174983008305e+01dB,-2.99588724142950e-02°)
1.01157945425990e+00	(-1.51174983063112e+01dB,-3.00279347351248e-02°)
1.01391138573668e+00	(-1.51174983118172e+01dB,-3.00971562609570e-02°)
1.01624869287070e+00	(-1.51174983173487e+01dB,-3.01665373587982e-02°)
1.01859138805412e+00	(-1.51174983229056e+01dB,-3.02360783965017e-02°)
1.02093948370768e+00	(-1.51174983284882e+01dB,-3.03057797427606e-02°)
1.02329299228075e+00	(-1.51174983340966e+01dB,-3.03756417671287e-02°)
1.02565192625141e+00	(-1.51174983397308e+01dB,-3.04456648400050e-02°)
1.02801629812647e+00	(-1.51174983453911e+01dB,-3.05158493326436e-02°)
1.03038612044162e+00	(-1.51174983510774e+01dB,-3.05861956171556e-02°)
1.03276140576140e+00	(-1.51174983567901e+01dB,-3.06567040665087e-02°)
1.03514216667934e+00	(-1.51174983625291e+01dB,-3.07273750545323e-02°)
1.03752841581801e+00	(-1.51174983682946e+01dB,-3.07982089559126e-02°)
1.03992016582906e+00	(-1.51174983740867e+01dB,-3.08692061462051e-02°)
1.04231742939330e+00	(-1.51174983799055e+01dB,-3.09403670018299e-02°)
1.04472021922080e+00	(-1.51174983857512e+01dB,-3.10116919000727e-02°)
1.04712854805090e+00	(-1.51174983916239e+01dB,-3.10831812190897e-02°)
1.04954242865232e+00	(-1.51174983975236e+01dB,-3.11548353379108e-02°)
1.05196187382322e+00	(-1.51174984034507e+01dB,-3.12266546364364e-02°)
1.05438689639126e+00	(-1.51174984094050e+01dB,-3.12986394954456e-02°)
1.05681750921366e+00	(-1.51174984153869e+01dB,-3.13707902965943e-02°)
1.05925372517729e+00	(-1.51174984213963e+01dB,-3.14431074224171e-02°)
1.06169555719872e+00	(-1.51174984274336e+01dB,-3.15155912563310e-02°)
1.06414301822431e+00	(-1.51174984334986e+01dB,-3.15882421826376e-02°)
1.06659612123026e+00	(-1.51174984395917e+01dB,-3.16610605865260e-02°)
1.06905487922266e+00	(-1.51174984457129e+01dB,-3.17340468540664e-02°)
1.07151930523761e+00	(-1.51174984518623e+01dB,-3.18072013722278e-02°)
1.07398941234124e+00	(-1.51174984580402e+01dB,-3.18805245288654e-02°)
1.07646521362983e+00	(-1.51174984642465e+01dB,-3.19540167127320e-02°)
1.07894672222983e+00	(-1.51174984704815e+01dB,-3.20276783134719e-02°)
1.08143395129794e+00	(-1.51174984767453e+01dB,-3.21015097216343e-02°)
1.08392691402120e+00	(-1.51174984830380e+01dB,-3.21755113286626e-02°)
1.08642562361706e+00	(-1.51174984893597e+01dB,-3.22496835269067e-02°)
1.08893009333343e+00	(-1.51174984957106e+01dB,-3.23240267096154e-02°)
1.09144033644876e+00	(-1.51174985020908e+01dB,-3.23985412709517e-02°)
1.09395636627209e+00	(-1.51174985085005e+01dB,-3.24732276059830e-02°)
1.09647819614318e+00	(-1.51174985149398e+01dB,-3.25480861106854e-02°)
1.09900583943252e+00	(-1.51174985214087e+01dB,-3.26231171819537e-02°)
1.10153930954141e+00	(-1.51174985279076e+01dB,-3.26983212175900e-02°)
1.10407861990207e+00	(-1.51174985344364e+01dB,-3.27736986163215e-02°)
1.10662378397766e+00	(-1.51174985409954e+01dB,-3.28492497777894e-02°)
1.10917481526240e+00	(-1.51174985475846e+01dB,-3.29249751025569e-02°)
1.11173172728159e+00	(-1.51174985542043e+01dB,-3.30008749921080e-02°)
1.11429453359173e+00	(-1.51174985608545e+01dB,-3.30769498488613e-02°)
1.11686324778056e+00	(-1.51174985675354e+01dB,-3.31532000761527e-02°)
1.11943788346715e+00	(-1.51174985742472e+01dB,-3.32296260782548e-02°)
1.12201845430196e+00	(-1.51174985809899e+01dB,-3.33062282603680e-02°)
1.12460497396692e+00	(-1.51174985877638e+01dB,-3.33830070286282e-02°)
1.12719745617551e+00	(-1.51174985945689e+01dB,-3.34599627901091e-02°)
1.12979591467280e+00	(-1.51174986014054e+01dB,-3.35370959528201e-02°)
1.13240036323556e+00	(-1.51174986082735e+01dB,-3.36144069257132e-02°)
1.13501081567231e+00	(-1.51174986151733e+01dB,-3.36918961186819e-02°)
1.13762728582343e+00	(-1.51174986221050e+01dB,-3.37695639425655e-02°)
1.14024978756117e+00	(-1.51174986290686e+01dB,-3.38474108091487e-02°)
1.14287833478977e+00	(-1.51174986360644e+01dB,-3.39254371311700e-02°)
1.14551294144553e+00	(-1.51174986430924e+01dB,-3.40036433223118e-02°)
1.14815362149688e+00	(-1.51174986501530e+01dB,-3.40820297972156e-02°)
1.15080038894443e+00	(-1.51174986572461e+01dB,-3.41605969714794e-02°)
1.15345325782109e+00	(-1.51174986643719e+01dB,-3.42393452616540e-02°)
1.15611224219210e+00	(-1.51174986715306e+01dB,-3.43182750852568e-02°)
1.15877735615512e+00	(-1.51174986787224e+01dB,-3.43973868607645e-02°)
1.16144861384034e+00	(-1.51174986859474e+01dB,-3.44766810076181e-02°)
1.16412602941049e+00	(-1.51174986932057e+01dB,-3.45561579462253e-02°)
1.16680961706096e+00	(-1.51174987004975e+01dB,-3.46358180979644e-02°)
1.16949939101987e+00	(-1.51174987078230e+01dB,-3.47156618851845e-02°)
1.17219536554813e+00	(-1.51174987151823e+01dB,-3.47956897312065e-02°)
1.17489755493953e+00	(-1.51174987225755e+01dB,-3.48759020603334e-02°)
1.17760597352080e+00	(-1.51174987300029e+01dB,-3.49562992978339e-02°)
1.18032063565173e+00	(-1.51174987374646e+01dB,-3.50368818699730e-02°)
1.18304155572516e+00	(-1.51174987449607e+01dB,-3.51176502039848e-02°)
1.18576874816716e+00	(-1.51174987524914e+01dB,-3.51986047280960e-02°)
1.18850222743702e+00	(-1.51174987600569e+01dB,-3.52797458715193e-02°)
1.19124200802737e+00	(-1.51174987676573e+01dB,-3.53610740644534e-02°)
1.19398810446427e+00	(-1.51174987752927e+01dB,-3.54425897380907e-02°)
1.19674053130724e+00	(-1.51174987829635e+01dB,-3.55242933246198e-02°)
1.19949930314938e+00	(-1.51174987906696e+01dB,-3.56061852572205e-02°)
1.20226443461741e+00	(-1.51174987984113e+01dB,-3.56882659700790e-02°)
1.20503594037179e+00	(-1.51174988061887e+01dB,-3.57705358983754e-02°)
1.20781383510678e+00	(-1.51174988140020e+01dB,-3.58529954782935e-02°)
1.21059813355048e+00	(-1.51174988218514e+01dB,-3.59356451470263e-02°)
1.21338885046497e+00	(-1.51174988297370e+01dB,-3.60184853427733e-02°)
1.21618600064636e+00	(-1.51174988376591e+01dB,-3.61015165047431e-02°)
1.21898959892486e+00	(-1.51174988456176e+01dB,-3.61847390731582e-02°)
1.22179966016487e+00	(-1.51174988536130e+01dB,-3.62681534892506e-02°)
1.22461619926504e+00	(-1.51174988616452e+01dB,-3.63517601952790e-02°)
1.22743923115840e+00	(-1.51174988697145e+01dB,-3.64355596345137e-02°)
1.23026877081238e+00	(-1.51174988778210e+01dB,-3.65195522512496e-02°)
1.23310483322890e+00	(-1.51174988859650e+01dB,-3.66037384908085e-02°)
1.23594743344451e+00	(-1.51174988941466e+01dB,-3.66881187995314e-02°)
1.23879658653036e+00	(-1.51174989023659e+01dB,-3.67726936247969e-02°)
1.24165230759241e+00	(-1.51174989106231e+01dB,-3.68574634150075e-02°)
1.24451461177138e+00	(-1.51174989189185e+01dB,-3.69424286196059e-02°)
1.24738351424294e+00	(-1.51174989272522e+01dB,-3.70275896890667e-02°)
1.25025903021771e+00	(-1.51174989356243e+01dB,-3.71129470749018e-02°)
1.25314117494141e+00	(-1.51174989440351e+01dB,-3.71985012296682e-02°)
1.25602996369487e+00	(-1.51174989524847e+01dB,-3.72842526069648e-02°)
1.25892541179416e+00	(-1.51174989609733e+01dB,-3.73702016614308e-02°)
1.26182753459066e+00	(-1.51174989695011e+01dB,-3.74563488487653e-02°)
1.26473634747115e+00	(-1.51174989780682e+01dB,-3.75426946257023e-02°)
1.26765186585784e+00	(-1.51174989866749e+01dB,-3.76292394500437e-02°)
1.27057410520854e+00	(-1.51174989953213e+01dB,-3.77159837806388e-02°)
1.27350308101666e+00	(-1.51174990040076e+01dB,-3.78029280773895e-02°)
1.27643880881134e+00	(-1.51174990127340e+01dB,-3.78900728012736e-02°)
1.27938130415752e+00	(-1.51174990215007e+01dB,-3.79774184143135e-02°)
1.28233058265602e+00	(-1.51174990303079e+01dB,-3.80649653796124e-02°)
1.28528665994361e+00	(-1.51174990391557e+01dB,-3.81527141613315e-02°)
1.28824955169313e+00	(-1.51174990480444e+01dB,-3.82406652247023e-02°)
1.29121927361353e+00	(-1.51174990569740e+01dB,-3.83288190360319e-02°)
1.29419584144998e+00	(-1.51174990659449e+01dB,-3.84171760627032e-02°)
1.29717927098395e+00	(-1.51174990749572e+01dB,-3.85057367731721e-02°)
1.30016957803328e+00	(-1.51174990840112e+01dB,-3.85945016369804e-02°)
1.30316677845229e+00	(-1.51174990931068e+01dB,-3.86834711247455e-02°)
1.30617088813183e+00	(-1.51174991022445e+01dB,-3.87726457081735e-02°)
1.30918192299940e+00	(-1.51174991114244e+01dB,-3.88620258600611e-02°)
1.31219989901920e+00	(-1.51174991206466e+01dB,-3.89516120542862e-02°)
1.31522483219223e+00	(-1.51174991299114e+01dB,-3.90414047658276e-02°)
1.31825673855640e+00	(-1.51174991392190e+01dB,-3.91314044707527e-02°)
1.32129563418657e+00	(-1.51174991485695e+01dB,-3.92216116462355e-02°)
1.32434153519466e+00	(-1.51174991579632e+01dB,-3.93120267705328e-02°)
1.32739445772973e+00	(-1.51174991674002e+01dB,-3.94026503230237e-02°)
1.33045441797808e+00	(-1.51174991768808e+01dB,-3.94934827841806e-02°)
1.33352143216332e+00	(-1.51174991864052e+01dB,-3.95845246355847e-02°)
1.33659551654643e+00	(-1.51174991959735e+01dB,-3.96757763599342e-02°)
1.33967668742593e+00	(-1.51174992055860e+01dB,-3.97672384410283e-02°)
1.34276496113786e+00	(-1.51174992152429e+01dB,-3.98589113637931e-02°)
1.34586035405594e+00	(-1.51174992249443e+01dB,-3.99507956142662e-02°)
1.34896288259164e+00	(-1.51174992346905e+01dB,-4.00428916796045e-02°)
1.35207256319427e+00	(-1.51174992444817e+01dB,-4.01352000480890e-02°)
1.35518941235103e+00	(-1.51174992543181e+01dB,-4.02277212091355e-02°)
1.35831344658715e+00	(-1.51174992641999e+01dB,-4.03204556532710e-02°)
1.36144468246594e+00	(-1.51174992741273e+01dB,-4.04134038721676e-02°)
1.36458313658892e+00	(-1.51174992841005e+01dB,-4.05065663586241e-02°)
1.36772882559584e+00	(-1.51174992941198e+01dB,-4.05999436065790e-02°)
1.37088176616484e+00	(-1.51174993041853e+01dB,-4.06935361111028e-02°)
1.37404197501251e+00	(-1.51174993142973e+01dB,-4.07873443684132e-02°)
1.37720946889394e+00	(-1.51174993244559e+01dB,-4.08813688758731e-02°)
1.38038426460288e+00	(-1.51174993346615e+01dB,-4.09756101319872e-02°)
1.38356637897177e+00	(-1.51174993449141e+01dB,-4.10700686364104e-02°)
1.38675582887188e+00	(-1.51174993552141e+01dB,-4.11647448899499e-02°)
1.38995263121334e+00	(-1.51174993655616e+01dB,-4.12596393945679e-02°)
1.39315680294529e+00	(-1.51174993759569e+01dB,-4.13547526533846e-02°)
1.39636836105593e+00	(-1.51174993864001e+01dB,-4.14500851706798e-02°)
1.39958732257261e+00	(-1.51174993968916e+01dB,-4.15456374518912e-02°)
1.40281370456195e+00	(-1.51174994074315e+01dB,-4.16414100036296e-02°)
1.40604752412990e+00	(-1.51174994180200e+01dB,-4.17374033336682e-02°)
1.40928879842186e+00	(-1.51174994286574e+01dB,-4.18336179509508e-02°)
1.41253754462274e+00	(-1.51174994393439e+01dB,-4.19300543655967e-02°)
1.41579377995707e+00	(-1.51174994500798e+01dB,-4.20267130888981e-02°)
1.41905752168908e+00	(-1.51174994608651e+01dB,-4.21235946333280e-02°)
1.42232878712281e+00	(-1.51174994717003e+01dB,-4.22206995125424e-02°)
1.42560759360218e+00	(-1.51174994825855e+01dB,-4.23180282413806e-02°)
1.42889395851109e+00	(-1.51174994935209e+01dB,-4.24155813358627e-02°)
1.43218789927353e+00	(-1.51174995045069e+01dB,-4.25133593132072e-02°)
1.43548943335364e+00	(-1.51174995155435e+01dB,-4.26113626918208e-02°)
1.43879857825583e+00	(-1.51174995266310e+01dB,-4.27095919913015e-02°)
1.44211535152486e+00	(-1.51174995377698e+01dB,-4.28080477324532e-02°)
1.44543977074592e+00	(-1.51174995489599e+01dB,-4.29067304372760e-02°)
1.44877185354475e+00	(-1.51174995602017e+01dB,-4.30056406289709e-02°)
1.45211161758773e+00	(-1.51174995714954e+01dB,-4.31047788319507e-02°)
1.45545908058195e+00	(-1.51174995828412e+01dB,-4.32041455718315e-02°)
1.45881426027534e+00	(-1.51174995942394e+01dB,-4.33037413754409e-02°)
1.46217717445671e+00	(-1.51174996056902e+01dB,-4.34035667708308e-02°)
1.46554784095590e+00	(-1.51174996171939e+01dB,-4.35036222872541e-02°)
1.46892627764385e+00	(-1.51174996287506e+01dB,-4.36039084552008e-02°)
1.47231250243271e+00	(-1.51174996403607e+01dB,-4.37044258063696e-02°)
1.47570653327588e+00	(-1.51174996520244e+01dB,-4.38051748736963e-02°)
1.47910838816819e+00	(-1.51174996637419e+01dB,-4.39061561913382e-02°)
1.48251808514594e+00	(-1.51174996755135e+01dB,-4.40073702946820e-02°)
1.48593564228699e+00	(-1.51174996873395e+01dB,-4.41088177203591e-02°)
1.48936107771090e+00	(-1.51174996992200e+01dB,-4.42104990062250e-02°)
1.49279440957898e+00	(-1.51174997111554e+01dB,-4.43124146913825e-02°)
1.49623565609442e+00	(-1.51174997231458e+01dB,-4.44145653161790e-02°)
1.49968483550236e+00	(-1.51174997351916e+01dB,-4.45169514222015e-02°)
1.50314196609001e+00	(-1.51174997472931e+01dB,-4.46195735522868e-02°)
1.50660706618673e+00	(-1.51174997594503e+01dB,-4.47224322505292e-02°)
1.51008015416413e+00	(-1.51174997716637e+01dB,-4.48255280622702e-02°)
1.51356124843619e+00	(-1.51174997839335e+01dB,-4.49288615341087e-02°)
1.51705036745932e+00	(-1.51174997962598e+01dB,-4.50324332139089e-02°)
1.52054752973248e+00	(-1.51174998086431e+01dB,-4.51362436507950e-02°)
1.52405275379728e+00	(-1.51174998210836e+01dB,-4.52402933951563e-02°)
1.52756605823806e+00	(-1.51174998335814e+01dB,-4.53445829986499e-02°)
1.53108746168202e+00	(-1.51174998461370e+01dB,-4.54491130142056e-02°)
1.53461698279928e+00	(-1.51174998587505e+01dB,-4.55538839960314e-02°)
1.53815464030302e+00	(-1.51174998714222e+01dB,-4.56588964996078e-02°)
1.54170045294954e+00	(-1.51174998841524e+01dB,-4.57641510816989e-02°)
1.54525443953840e+00	(-1.51174998969414e+01dB,-4.58696483003488e-02°)
1.54881661891247e+00	(-1.51174999097894e+01dB,-4.59753887148927e-02°)
1.55238700995807e+00	(-1.51174999226967e+01dB,-4.60813728859539e-02°)
1.55596563160506e+00	(-1.51174999356636e+01dB,-4.61876013754438e-02°)
1.55955250282694e+00	(-1.51174999486904e+01dB,-4.62940747465750e-02°)
1.56314764264094e+00	(-1.51174999617772e+01dB,-4.64007935638560e-02°)
1.56675107010813e+00	(-1.51174999749245e+01dB,-4.65077583930910e-02°)
1.57036280433354e+00	(-1.51174999881325e+01dB,-4.66149698014008e-02°)
1.57398286446620e+00	(-1.51175000014014e+01dB,-4.67224283572044e-02°)
1.57761126969933e+00	(-1.51175000147316e+01dB,-4.68301346302323e-02°)
1.58124803927037e+00	(-1.51175000281233e+01dB,-4.69380891915287e-02°)
1.58489319246110e+00	(-1.51175000415768e+01dB,-4.70462926134568e-02°)
1.58854674859776e+00	(-1.51175000550924e+01dB,-4.71547454696987e-02°)
1.59220872705115e+00	(-1.51175000686704e+01dB,-4.72634483352527e-02°)
1.59587914723672e+00	(-1.51175000823111e+01dB,-4.73724017864519e-02°)
1.59955802861465e+00	(-1.51175000960147e+01dB,-4.74816064009503e-02°)
1.60324539069002e+00	(-1.51175001097816e+01dB,-4.75910627577392e-02°)
1.60694125301286e+00	(-1.51175001236121e+01dB,-4.77007714371390e-02°)
1.61064563517825e+00	(-1.51175001375063e+01dB,-4.78107330208170e-02°)
1.61435855682647e+00	(-1.51175001514647e+01dB,-4.79209480917700e-02°)
1.61808003764305e+00	(-1.51175001654876e+01dB,-4.80314172343416e-02°)
1.62181009735891e+00	(-1.51175001795751e+01dB,-4.81421410342305e-02°)
1.62554875575047e+00	(-1.51175001937277e+01dB,-4.82531200784796e-02°)
1.62929603263970e+00	(-1.51175002079456e+01dB,-4.83643549554844e-02°)
1.63305194789432e+00	(-1.51175002222292e+01dB,-4.84758462549949e-02°)
1.63681652142779e+00	(-1.51175002365786e+01dB,-4.85875945681315e-02°)
1.64058977319952e+00	(-1.51175002509943e+01dB,-4.86996004873589e-02°)
1.64437172321491e+00	(-1.51175002654766e+01dB,-4.88118646065224e-02°)
1.64816239152549e+00	(-1.51175002800257e+01dB,-4.89243875208349e-02°)
1.65196179822900e+00	(-1.51175002946419e+01dB,-4.90371698268716e-02°)
1.65576996346951e+00	(-1.51175003093256e+01dB,-4.91502121225985e-02°)
1.65958690743754e+00	(-1.51175003240771e+01dB,-4.92635150073415e-02°)
1.66341265037015e+00	(-1.51175003388967e+01dB,-4.93770790818247e-02°)
1.66724721255104e+00	(-1.51175003537847e+01dB,-4.94909049481452e-02°)
1.67109061431069e+00	(-1.51175003687414e+01dB,-4.96049932097981e-02°)
1.67494287602642e+00	(-1.51175003837671e+01dB,-4.97193444716591e-02°)
1.67880401812254e+00	(-1.51175003988622e+01dB,-4.98339593400048e-02°)
1.68267406107045e+00	(-1.51175004140270e+01dB,-4.99488384225126e-02°)
1.68655302538872e+00	(-1.51175004292617e+01dB,-5.00639823282506e-02°)
1.69044093164324e+00	(-1.51175004445668e+01dB,-5.01793916676980e-02°)
1.69433780044731e+00	(-1.51175004599426e+01dB,-5.02950670527401e-02°)
1.69824365246172e+00	(-1.51175004753893e+01dB,-5.04110090966757e-02°)
1.70215850839493e+00	(-1.51175004909073e+01dB,-5.05272184142124e-02°)
1.70608238900310e+00	(-1.51175005064969e+01dB,-5.06436956214740e-02°)
1.71001531509027e+00	(-1.51175005221585e+01dB,-5.07604413360055e-02°)
1.71395730750840e+00	(-1.51175005378924e+01dB,-5.08774561767838e-02°)
1.71790838715757e+00	(-1.51175005536989e+01dB,-5.09947407642019e-02°)
1.72186857498599e+00	(-1.51175005695783e+01dB,-5.11122957200895e-02°)
1.72583789199018e+00	(-1.51175005855311e+01dB,-5.12301216677055e-02°)
1.72981635921508e+00	(-1.51175006015575e+01dB,-5.13482192317479e-02°)
1.73380399775412e+00	(-1.51175006176578e+01dB,-5.14665890383517e-02°)
1.73780082874935e+00	(-1.51175006338325e+01dB,-5.15852317151039e-02°)
1.74180687339159e+00	(-1.51175006500819e+01dB,-5.17041478910255e-02°)
1.74582215292048e+00	(-1.51175006664062e+01dB,-5.18233381966002e-02°)
1.74984668862464e+00	(-1.51175006828059e+01dB,-5.19428032637508e-02°)
1.75388050184174e+00	(-1.51175006992813e+01dB,-5.20625437258752e-02°)
1.75792361395867e+00	(-1.51175007158327e+01dB,-5.21825602178132e-02°)
1.76197604641161e+00	(-1.51175007324606e+01dB,-5.23028533758749e-02°)
1.76603782068614e+00	(-1.51175007491652e+01dB,-5.24234238378478e-02°)
1.77010895831740e+00	(-1.51175007659468e+01dB,-5.25442722429741e-02°)
1.77418948089014e+00	(-1.51175007828060e+01dB,-5.26653992319764e-02°)
1.77827941003890e+00	(-1.51175007997430e+01dB,-5.27868054470524e-02°)
1.78237876744807e+00	(-1.51175008167581e+01dB,-5.29084915318853e-02°)
1.78648757485203e+00	(-1.51175008338518e+01dB,-5.30304581316307e-02°)
1.79060585403527e+00	(-1.51175008510244e+01dB,-5.31527058929452e-02°)
1.79473362683250e+00	(-1.51175008682762e+01dB,-5.32752354639731e-02°)
1.79887091512876e+00	(-1.51175008856077e+01dB,-5.33980474943418e-02°)
1.80301774085955e+00	(-1.51175009030192e+01dB,-5.35211426351845e-02°)
1.80717412601090e+00	(-1.51175009205111e+01dB,-5.36445215391375e-02°)
1.81134009261958e+00	(-1.51175009380836e+01dB,-5.37681848603409e-02°)
1.81551566277311e+00	(-1.51175009557374e+01dB,-5.38921332544402e-02°)
1.81970085860996e+00	(-1.51175009734725e+01dB,-5.40163673785871e-02°)
1.82389570231961e+00	(-1.51175009912896e+01dB,-5.41408878914595e-02°)
1.82810021614272e+00	(-1.51175010091889e+01dB,-5.42656954532491e-02°)
1.83231442237119e+00	(-1.51175010271708e+01dB,-5.43907907256635e-02°)
1.83653834334832e+00	(-1.51175010452357e+01dB,-5.45161743719419e-02°)
1.84077200146893e+00	(-1.51175010633840e+01dB,-5.46418470568524e-02°)
1.84501541917945e+00	(-1.51175010816160e+01dB,-5.47678094466947e-02°)
1.84926861897805e+00	(-1.51175010999322e+01dB,-5.48940622093023e-02°)
1.85353162341479e+00	(-1.51175011183330e+01dB,-5.50206060140534e-02°)
1.85780445509167e+00	(-1.51175011368187e+01dB,-5.51474415318600e-02°)
1.86208713666284e+00	(-1.51175011553897e+01dB,-5.52745694351911e-02°)
1.86637969083464e+00	(-1.51175011740465e+01dB,-5.54019903980628e-02°)
1.87068214036577e+00	(-1.51175011927893e+01dB,-5.55297050960355e-02°)
1.87499450806739e+00	(-1.51175012116187e+01dB,-5.56577142062393e-02°)
1.87931681680324e+00	(-1.51175012305350e+01dB,-5.57860184073642e-02°)
1.88364908948977e+00	(-1.51175012495385e+01dB,-5.59146183796520e-02°)
1.88799134909627e+00	(-1.51175012686299e+01dB,-5.60435148049299e-02°)
1.89234361864495e+00	(-1.51175012878093e+01dB,-5.61727083665873e-02°)
1.89670592121112e+00	(-1.51175013070772e+01dB,-5.63021997495912e-02°)
1.90107827992327e+00	(-1.51175013264341e+01dB,-5.64319896404809e-02°)
1.90546071796322e+00	(-1.51175013458804e+01dB,-5.65620787273890e-02°)
